    BEGIN:|p|   BEGIN:Freq TBRAN:Re(Zb TBRAN:Im(Zb  CONE:AreaF  TX:HeatIn  TBRAN:Re(Zb TBRAN:Im(Zb TBRAN:NdotB 
        Pa          Hz       Pa-s/m^3    Pa-s/m^3      m^2          W        Pa-s/m^3    Pa-s/m^3     mol/s    
         0d          0b          1a          1b          9d         12e         16a         16b         16d    
     3.1440E+5       89.0010  -1.4906E+7    1.4573E+7    1.9260E-4    -2226.1      2.2184E+6    1.0168E+7        1.37800
     3.1440E+5       89.0030  -1.4906E+7    1.4574E+7    1.9256E-4    -2226.2      2.2171E+6    1.0163E+7        1.37620
     3.1441E+5       89.0050  -1.4905E+7    1.4576E+7    1.9252E-4    -2226.2      2.2159E+6    1.0159E+7        1.37440
     3.1442E+5       89.0070  -1.4905E+7    1.4578E+7    1.9248E-4    -2226.3      2.2146E+6    1.0155E+7        1.37260
     3.1442E+5       89.0090  -1.4905E+7    1.4579E+7    1.9243E-4    -2226.4      2.2134E+6    1.0150E+7        1.37080
     3.1442E+5       89.0110  -1.4905E+7    1.4581E+7    1.9239E-4    -2226.4      2.2122E+6    1.0146E+7        1.36900
     3.1443E+5       89.0140  -1.4905E+7    1.4582E+7    1.9235E-4    -2226.5      2.2109E+6    1.0142E+7        1.36710
     3.1444E+5       89.0160  -1.4905E+7    1.4584E+7    1.9231E-4    -2226.6      2.2097E+6    1.0137E+7        1.36530
     3.1444E+5       89.0180  -1.4905E+7    1.4586E+7    1.9227E-4    -2226.6      2.2084E+6    1.0133E+7        1.36350
     3.1444E+5       89.0200  -1.4905E+7    1.4587E+7    1.9223E-4    -2226.7      2.2072E+6    1.0128E+7        1.36170
     3.1445E+5       89.0220  -1.4905E+7    1.4589E+7    1.9219E-4    -2226.8      2.2060E+6    1.0124E+7        1.36000
     3.1446E+5       89.0240  -1.4905E+7    1.4590E+7    1.9214E-4    -2226.9      2.2047E+6    1.0120E+7        1.35820
     3.1446E+5       89.0260  -1.4904E+7    1.4592E+7    1.9210E-4    -2226.9      2.2035E+6    1.0115E+7        1.35640
     3.1446E+5       89.0280  -1.4904E+7    1.4594E+7    1.9206E-4    -2227.0      2.2023E+6    1.0111E+7        1.35460
     3.1447E+5       89.0300  -1.4904E+7    1.4595E+7    1.9202E-4    -2227.1      2.2010E+6    1.0107E+7        1.35280
     3.1448E+5       89.0320  -1.4904E+7    1.4597E+7    1.9198E-4    -2227.1      2.1998E+6    1.0102E+7        1.35110
     3.1448E+5       89.0340  -1.4904E+7    1.4599E+7    1.9194E-4    -2227.2      2.1985E+6    1.0098E+7        1.34930
     3.1448E+5       89.0360  -1.4904E+7    1.4600E+7    1.9190E-4    -2227.3      2.1973E+6    1.0093E+7        1.34750
     3.1449E+5       89.0380  -1.4904E+7    1.4602E+7    1.9186E-4    -2227.4      2.1961E+6    1.0089E+7        1.34580
     3.1450E+5       89.0400  -1.4904E+7    1.4603E+7    1.9182E-4    -2227.4      2.1948E+6    1.0085E+7        1.34400
     3.1450E+5       89.0420  -1.4903E+7    1.4605E+7    1.9178E-4    -2227.5      2.1936E+6    1.0080E+7        1.34230
     3.1450E+5       89.0440  -1.4903E+7    1.4607E+7    1.9173E-4    -2227.6      2.1924E+6    1.0076E+7        1.34050
     3.1451E+5       89.0460  -1.4903E+7    1.4608E+7    1.9169E-4    -2227.6      2.1911E+6    1.0072E+7        1.33880
     3.1452E+5       89.0480  -1.4903E+7    1.4610E+7    1.9165E-4    -2227.7      2.1899E+6    1.0067E+7        1.33700
     3.1452E+5       89.0500  -1.4903E+7    1.4612E+7    1.9161E-4    -2227.8      2.1886E+6    1.0063E+7        1.33530
     3.1452E+5       89.0520  -1.4903E+7    1.4613E+7    1.9157E-4    -2227.9      2.1874E+6    1.0058E+7        1.33360
*4   3.1453E+5       89.0540  -1.4903E+7    1.4615E+7    1.9154E-4    -2227.9      2.1863E+6    1.0055E+7        1.33250
*4   3.1454E+5       89.0540  -1.4903E+7    1.4616E+7    1.9152E-4    -2228.0      2.1854E+6    1.0051E+7        1.33200
     3.1454E+5       89.0590  -1.4902E+7    1.4618E+7    1.9145E-4    -2228.1      2.1837E+6    1.0045E+7        1.32840
*4   3.1454E+5       89.0600  -1.4902E+7    1.4619E+7    1.9142E-4    -2228.1      2.1826E+6    1.0041E+7        1.32730
     3.1455E+5       89.0630  -1.4902E+7    1.4621E+7    1.9137E-4    -2228.2      2.1812E+6    1.0036E+7        1.32490
     3.1456E+5       89.0650  -1.4902E+7    1.4623E+7    1.9133E-4    -2228.3      2.1800E+6    1.0032E+7        1.32320
     3.1456E+5       89.0670  -1.4902E+7    1.4625E+7    1.9129E-4    -2228.4      2.1787E+6    1.0028E+7        1.32150
     3.1456E+5       89.0690  -1.4902E+7    1.4626E+7    1.9125E-4    -2228.4      2.1775E+6    1.0023E+7        1.31980
     3.1457E+5       89.0710  -1.4902E+7    1.4628E+7    1.9121E-4    -2228.5      2.1763E+6    1.0019E+7        1.31810
     3.1458E+5       89.0730  -1.4902E+7    1.4629E+7    1.9117E-4    -2228.6      2.1750E+6    1.0015E+7        1.31640
     3.1458E+5       89.0750  -1.4901E+7    1.4631E+7    1.9113E-4    -2228.7      2.1738E+6    1.0010E+7        1.31470
     3.1458E+5       89.0770  -1.4901E+7    1.4633E+7    1.9109E-4    -2228.7      2.1726E+6    1.0006E+7        1.31300
     3.1459E+5       89.0790  -1.4901E+7    1.4634E+7    1.9105E-4    -2228.8      2.1713E+6    1.0001E+7        1.31140
     3.1460E+5       89.0810  -1.4901E+7    1.4636E+7    1.9101E-4    -2228.9      2.1701E+6    9.9969E+6        1.30970
     3.1460E+5       89.0830  -1.4901E+7    1.4638E+7    1.9097E-4    -2229.0      2.1689E+6    9.9926E+6        1.30800
     3.1460E+5       89.0860  -1.4901E+7    1.4639E+7    1.9093E-4    -2229.0      2.1676E+6    9.9882E+6        1.30630
     3.1461E+5       89.0880  -1.4901E+7    1.4641E+7    1.9089E-4    -2229.1      2.1664E+6    9.9838E+6        1.30470
     3.1462E+5       89.0900  -1.4900E+7    1.4643E+7    1.9085E-4    -2229.2      2.1651E+6    9.9794E+6        1.30300
     3.1462E+5       89.0920  -1.4900E+7    1.4644E+7    1.9081E-4    -2229.3      2.1639E+6    9.9750E+6        1.30140
     3.1462E+5       89.0940  -1.4900E+7    1.4646E+7    1.9078E-4    -2229.3      2.1627E+6    9.9706E+6        1.29970
     3.1463E+5       89.0960  -1.4900E+7    1.4648E+7    1.9074E-4    -2229.4      2.1614E+6    9.9662E+6        1.29800
     3.1464E+5       89.0980  -1.4900E+7    1.4649E+7    1.9070E-4    -2229.5      2.1602E+6    9.9618E+6        1.29640
     3.1464E+5       89.1000  -1.4900E+7    1.4651E+7    1.9066E-4    -2229.5      2.1590E+6    9.9574E+6        1.29480
     3.1464E+5       89.1020  -1.4899E+7    1.4653E+7    1.9062E-4    -2229.6      2.1577E+6    9.9530E+6        1.29310
     3.1465E+5       89.1040  -1.4899E+7    1.4654E+7    1.9058E-4    -2229.7      2.1565E+6    9.9486E+6        1.29150
     3.1466E+5       89.1070  -1.4899E+7    1.4656E+7    1.9054E-4    -2229.8      2.1553E+6    9.9442E+6        1.28990
     3.1466E+5       89.1090  -1.4899E+7    1.4658E+7    1.9050E-4    -2229.8      2.1540E+6    9.9398E+6        1.28820
     3.1466E+5       89.1110  -1.4899E+7    1.4659E+7    1.9046E-4    -2229.9      2.1528E+6    9.9354E+6        1.28660
     3.1467E+5       89.1130  -1.4899E+7    1.4661E+7    1.9042E-4    -2230.0      2.1516E+6    9.9310E+6        1.28500
     3.1468E+5       89.1140  -1.4899E+7    1.4662E+7    1.9039E-4    -2230.1      2.1504E+6    9.9270E+6        1.28370
     3.1468E+5       89.1170  -1.4898E+7    1.4664E+7    1.9035E-4    -2230.1      2.1491E+6    9.9222E+6        1.28180
     3.1468E+5       89.1190  -1.4898E+7    1.4666E+7    1.9031E-4    -2230.2      2.1479E+6    9.9179E+6        1.28020
     3.1469E+5       89.1210  -1.4898E+7    1.4668E+7    1.9027E-4    -2230.3      2.1466E+6    9.9135E+6        1.27860
     3.1470E+5       89.1230  -1.4898E+7    1.4669E+7    1.9023E-4    -2230.4      2.1454E+6    9.9091E+6        1.27700
     3.1470E+5       89.1260  -1.4898E+7    1.4671E+7    1.9019E-4    -2230.4      2.1442E+6    9.9047E+6        1.27540
     3.1470E+5       89.1280  -1.4897E+7    1.4673E+7    1.9016E-4    -2230.5      2.1429E+6    9.9003E+6        1.27380
     3.1471E+5       89.1300  -1.4897E+7    1.4674E+7    1.9012E-4    -2230.6      2.1417E+6    9.8959E+6        1.27220
     3.1472E+5       89.1320  -1.4897E+7    1.4676E+7    1.9008E-4    -2230.7      2.1405E+6    9.8915E+6        1.27060
     3.1472E+5       89.1340  -1.4897E+7    1.4678E+7    1.9004E-4    -2230.7      2.1392E+6    9.8871E+6        1.26900
     3.1472E+5       89.1360  -1.4897E+7    1.4679E+7    1.9000E-4    -2230.8      2.1380E+6    9.8827E+6        1.26750
     3.1473E+5       89.1380  -1.4897E+7    1.4681E+7    1.8996E-4    -2230.9      2.1368E+6    9.8783E+6        1.26590
     3.1474E+5       89.1400  -1.4896E+7    1.4683E+7    1.8993E-4    -2231.0      2.1355E+6    9.8739E+6        1.26430
     3.1474E+5       89.1430  -1.4896E+7    1.4684E+7    1.8989E-4    -2231.0      2.1343E+6    9.8695E+6        1.26280
     3.1474E+5       89.1450  -1.4896E+7    1.4686E+7    1.8985E-4    -2231.1      2.1331E+6    9.8651E+6        1.26120
     3.1475E+5       89.1470  -1.4896E+7    1.4688E+7    1.8981E-4    -2231.2      2.1318E+6    9.8607E+6        1.25970
     3.1476E+5       89.1490  -1.4896E+7    1.4689E+7    1.8978E-4    -2231.3      2.1306E+6    9.8563E+6        1.25810
     3.1476E+5       89.1510  -1.4896E+7    1.4691E+7    1.8974E-4    -2231.3      2.1294E+6    9.8519E+6        1.25660
     3.1476E+5       89.1530  -1.4895E+7    1.4693E+7    1.8970E-4    -2231.4      2.1281E+6    9.8475E+6        1.25500
     3.1477E+5       89.1550  -1.4895E+7    1.4694E+7    1.8966E-4    -2231.5      2.1269E+6    9.8431E+6        1.25350
     3.1478E+5       89.1570  -1.4895E+7    1.4696E+7    1.8963E-4    -2231.6      2.1257E+6    9.8387E+6        1.25200
     3.1478E+5       89.1600  -1.4895E+7    1.4698E+7    1.8959E-4    -2231.6      2.1244E+6    9.8343E+6        1.25040
     3.1478E+5       89.1620  -1.4895E+7    1.4699E+7    1.8955E-4    -2231.7      2.1232E+6    9.8299E+6        1.24890
     3.1479E+5       89.1640  -1.4894E+7    1.4701E+7    1.8951E-4    -2231.8      2.1220E+6    9.8255E+6        1.24740
     3.1480E+5       89.1660  -1.4894E+7    1.4703E+7    1.8948E-4    -2231.9      2.1208E+6    9.8211E+6        1.24590
     3.1480E+5       89.1680  -1.4894E+7    1.4704E+7    1.8944E-4    -2231.9      2.1195E+6    9.8167E+6        1.24440
     3.1480E+5       89.1700  -1.4894E+7    1.4706E+7    1.8940E-4    -2232.0      2.1183E+6    9.8123E+6        1.24290
     3.1481E+5       89.1720  -1.4894E+7    1.4708E+7    1.8936E-4    -2232.1      2.1171E+6    9.8079E+6        1.24140
     3.1482E+5       89.1750  -1.4893E+7    1.4710E+7    1.8933E-4    -2232.2      2.1158E+6    9.8035E+6        1.23990
     3.1482E+5       89.1770  -1.4893E+7    1.4711E+7    1.8929E-4    -2232.2      2.1146E+6    9.7991E+6        1.23840
     3.1482E+5       89.1790  -1.4893E+7    1.4713E+7    1.8925E-4    -2232.3      2.1134E+6    9.7948E+6        1.23690
     3.1483E+5       89.1810  -1.4893E+7    1.4715E+7    1.8922E-4    -2232.4      2.1122E+6    9.7904E+6        1.23540
     3.1484E+5       89.1830  -1.4893E+7    1.4716E+7    1.8918E-4    -2232.5      2.1109E+6    9.7860E+6        1.23390
     3.1484E+5       89.1850  -1.4892E+7    1.4718E+7    1.8914E-4    -2232.5      2.1097E+6    9.7816E+6        1.23240
     3.1484E+5       89.1870  -1.4892E+7    1.4720E+7    1.8911E-4    -2232.6      2.1085E+6    9.7772E+6        1.23100
     3.1485E+5       89.1900  -1.4892E+7    1.4721E+7    1.8907E-4    -2232.7      2.1073E+6    9.7728E+6        1.22950
     3.1486E+5       89.1920  -1.4892E+7    1.4723E+7    1.8903E-4    -2232.8      2.1060E+6    9.7684E+6        1.22800
     3.1486E+5       89.1940  -1.4892E+7    1.4725E+7    1.8900E-4    -2232.8      2.1048E+6    9.7640E+6        1.22660
     3.1486E+5       89.1960  -1.4891E+7    1.4727E+7    1.8896E-4    -2232.9      2.1036E+6    9.7596E+6        1.22510
     3.1487E+5       89.1980  -1.4891E+7    1.4728E+7    1.8892E-4    -2233.0      2.1024E+6    9.7552E+6        1.22370
     3.1488E+5       89.2000  -1.4891E+7    1.4730E+7    1.8889E-4    -2233.1      2.1011E+6    9.7508E+6        1.22220
     3.1488E+5       89.2030  -1.4891E+7    1.4732E+7    1.8885E-4    -2233.2      2.0999E+6    9.7464E+6        1.22080
     3.1488E+5       89.2050  -1.4891E+7    1.4733E+7    1.8881E-4    -2233.2      2.0987E+6    9.7420E+6        1.21930
     3.1489E+5       89.2070  -1.4890E+7    1.4735E+7    1.8878E-4    -2233.3      2.0975E+6    9.7376E+6        1.21790
     3.1490E+5       89.2090  -1.4890E+7    1.4737E+7    1.8874E-4    -2233.4      2.0962E+6    9.7333E+6        1.21650
     3.1490E+5       89.2110  -1.4890E+7    1.4739E+7    1.8871E-4    -2233.5      2.0950E+6    9.7289E+6        1.21500
     3.1490E+5       89.2130  -1.4890E+7    1.4740E+7    1.8867E-4    -2233.5      2.0938E+6    9.7245E+6        1.21360
     3.1491E+5       89.2160  -1.4890E+7    1.4742E+7    1.8863E-4    -2233.6      2.0926E+6    9.7201E+6        1.21220
     3.1492E+5       89.2180  -1.4889E+7    1.4744E+7    1.8860E-4    -2233.7      2.0914E+6    9.7157E+6        1.21080
     3.1492E+5       89.2200  -1.4889E+7    1.4745E+7    1.8856E-4    -2233.8      2.0901E+6    9.7113E+6        1.20940
     3.1492E+5       89.2220  -1.4889E+7    1.4747E+7    1.8853E-4    -2233.8      2.0889E+6    9.7069E+6        1.20800
     3.1493E+5       89.2240  -1.4889E+7    1.4749E+7    1.8849E-4    -2233.9      2.0877E+6    9.7025E+6        1.20660
     3.1494E+5       89.2260  -1.4888E+7    1.4751E+7    1.8846E-4    -2234.0      2.0865E+6    9.6982E+6        1.20520
     3.1494E+5       89.2290  -1.4888E+7    1.4752E+7    1.8842E-4    -2234.1      2.0853E+6    9.6938E+6        1.20380
     3.1494E+5       89.2310  -1.4888E+7    1.4754E+7    1.8838E-4    -2234.1      2.0840E+6    9.6894E+6        1.20240
     3.1495E+5       89.2330  -1.4888E+7    1.4756E+7    1.8835E-4    -2234.2      2.0828E+6    9.6850E+6        1.20100
     3.1496E+5       89.2350  -1.4888E+7    1.4757E+7    1.8831E-4    -2234.3      2.0816E+6    9.6806E+6        1.19960
     3.1496E+5       89.2370  -1.4887E+7    1.4759E+7    1.8828E-4    -2234.4      2.0804E+6    9.6762E+6        1.19830
     3.1496E+5       89.2390  -1.4887E+7    1.4761E+7    1.8824E-4    -2234.5      2.0792E+6    9.6719E+6        1.19690
     3.1497E+5       89.2420  -1.4887E+7    1.4763E+7    1.8821E-4    -2234.5      2.0780E+6    9.6675E+6        1.19550
     3.1498E+5       89.2440  -1.4887E+7    1.4764E+7    1.8817E-4    -2234.6      2.0767E+6    9.6631E+6        1.19420
     3.1498E+5       89.2460  -1.4886E+7    1.4766E+7    1.8814E-4    -2234.7      2.0755E+6    9.6587E+6        1.19280
     3.1498E+5       89.2480  -1.4886E+7    1.4768E+7    1.8810E-4    -2234.8      2.0743E+6    9.6543E+6        1.19150
     3.1499E+5       89.2500  -1.4886E+7    1.4770E+7    1.8807E-4    -2234.8      2.0731E+6    9.6500E+6        1.19010
     3.1500E+5       89.2530  -1.4886E+7    1.4771E+7    1.8803E-4    -2234.9      2.0719E+6    9.6456E+6        1.18880
     3.1500E+5       89.2550  -1.4885E+7    1.4773E+7    1.8800E-4    -2235.0      2.0707E+6    9.6412E+6        1.18740
*1   3.1500E+5       89.2560  -1.4885E+7    1.4775E+7    1.8797E-4    -2235.1      2.0697E+6    9.6377E+6        1.18680
*4   3.1501E+5       89.2560  -1.4885E+7    1.4776E+7    1.8796E-4    -2235.1      2.0689E+6    9.6349E+6        1.18680
     3.1502E+5       89.2610  -1.4885E+7    1.4778E+7    1.8789E-4    -2235.2      2.0670E+6    9.6281E+6        1.18340
     3.1502E+5       89.2630  -1.4884E+7    1.4780E+7    1.8786E-4    -2235.3      2.0658E+6    9.6237E+6        1.18210
     3.1502E+5       89.2660  -1.4884E+7    1.4782E+7    1.8782E-4    -2235.4      2.0646E+6    9.6193E+6        1.18080
     3.1503E+5       89.2680  -1.4884E+7    1.4784E+7    1.8779E-4    -2235.5      2.0634E+6    9.6150E+6        1.17950
     3.1504E+5       89.2700  -1.4884E+7    1.4785E+7    1.8775E-4    -2235.5      2.0622E+6    9.6106E+6        1.17820
     3.1504E+5       89.2720  -1.4883E+7    1.4787E+7    1.8772E-4    -2235.6      2.0610E+6    9.6062E+6        1.17680
     3.1504E+5       89.2740  -1.4883E+7    1.4789E+7    1.8769E-4    -2235.7      2.0598E+6    9.6019E+6        1.17550
     3.1505E+5       89.2770  -1.4883E+7    1.4791E+7    1.8765E-4    -2235.8      2.0586E+6    9.5975E+6        1.17420
     3.1506E+5       89.2790  -1.4883E+7    1.4792E+7    1.8762E-4    -2235.9      2.0573E+6    9.5931E+6        1.17290
     3.1506E+5       89.2810  -1.4883E+7    1.4794E+7    1.8758E-4    -2235.9      2.0561E+6    9.5887E+6        1.17170
     3.1506E+5       89.2830  -1.4882E+7    1.4796E+7    1.8755E-4    -2236.0      2.0549E+6    9.5844E+6        1.17040
     3.1507E+5       89.2850  -1.4882E+7    1.4798E+7    1.8751E-4    -2236.1      2.0537E+6    9.5800E+6        1.16910
     3.1508E+5       89.2880  -1.4882E+7    1.4799E+7    1.8748E-4    -2236.2      2.0525E+6    9.5757E+6        1.16780
     3.1508E+5       89.2900  -1.4882E+7    1.4801E+7    1.8745E-4    -2236.2      2.0513E+6    9.5713E+6        1.16650
     3.1508E+5       89.2920  -1.4881E+7    1.4803E+7    1.8741E-4    -2236.3      2.0501E+6    9.5669E+6        1.16530
     3.1509E+5       89.2940  -1.4881E+7    1.4805E+7    1.8738E-4    -2236.4      2.0489E+6    9.5626E+6        1.16400
     3.1510E+5       89.2960  -1.4881E+7    1.4806E+7    1.8734E-4    -2236.5      2.0477E+6    9.5582E+6        1.16270
     3.1510E+5       89.2990  -1.4880E+7    1.4808E+7    1.8731E-4    -2236.6      2.0465E+6    9.5538E+6        1.16150
     3.1510E+5       89.3010  -1.4880E+7    1.4810E+7    1.8728E-4    -2236.6      2.0453E+6    9.5495E+6        1.16020
     3.1511E+5       89.3030  -1.4880E+7    1.4812E+7    1.8724E-4    -2236.7      2.0441E+6    9.5451E+6        1.15900
     3.1512E+5       89.3050  -1.4880E+7    1.4813E+7    1.8721E-4    -2236.8      2.0429E+6    9.5408E+6        1.15770
     3.1512E+5       89.3070  -1.4879E+7    1.4815E+7    1.8718E-4    -2236.9      2.0417E+6    9.5364E+6        1.15650
     3.1512E+5       89.3090  -1.4879E+7    1.4817E+7    1.8714E-4    -2236.9      2.0405E+6    9.5321E+6        1.15520
     3.1513E+5       89.3120  -1.4879E+7    1.4819E+7    1.8711E-4    -2237.0      2.0393E+6    9.5277E+6        1.15400
     3.1514E+5       89.3140  -1.4879E+7    1.4820E+7    1.8707E-4    -2237.1      2.0381E+6    9.5234E+6        1.15280
     3.1514E+5       89.3160  -1.4878E+7    1.4822E+7    1.8704E-4    -2237.2      2.0369E+6    9.5190E+6        1.15150
     3.1514E+5       89.3180  -1.4878E+7    1.4824E+7    1.8701E-4    -2237.3      2.0357E+6    9.5147E+6        1.15030
     3.1515E+5       89.3200  -1.4878E+7    1.4826E+7    1.8697E-4    -2237.3      2.0345E+6    9.5103E+6        1.14910
     3.1516E+5       89.3230  -1.4878E+7    1.4827E+7    1.8694E-4    -2237.4      2.0333E+6    9.5060E+6        1.14790
     3.1516E+5       89.3250  -1.4877E+7    1.4829E+7    1.8691E-4    -2237.5      2.0321E+6    9.5016E+6        1.14670
     3.1516E+5       89.3270  -1.4877E+7    1.4831E+7    1.8688E-4    -2237.6      2.0309E+6    9.4973E+6        1.14550
     3.1517E+5       89.3290  -1.4877E+7    1.4833E+7    1.8684E-4    -2237.7      2.0297E+6    9.4929E+6        1.14430
     3.1518E+5       89.3320  -1.4877E+7    1.4835E+7    1.8681E-4    -2237.7      2.0285E+6    9.4886E+6        1.14310
     3.1518E+5       89.3340  -1.4876E+7    1.4836E+7    1.8678E-4    -2237.8      2.0273E+6    9.4842E+6        1.14190
     3.1518E+5       89.3360  -1.4876E+7    1.4838E+7    1.8674E-4    -2237.9      2.0261E+6    9.4799E+6        1.14070
     3.1519E+5       89.3380  -1.4876E+7    1.4840E+7    1.8671E-4    -2238.0      2.0249E+6    9.4756E+6        1.13950
     3.1520E+5       89.3400  -1.4875E+7    1.4842E+7    1.8668E-4    -2238.1      2.0237E+6    9.4712E+6        1.13830
     3.1520E+5       89.3430  -1.4875E+7    1.4843E+7    1.8664E-4    -2238.1      2.0225E+6    9.4669E+6        1.13710
     3.1520E+5       89.3450  -1.4875E+7    1.4845E+7    1.8661E-4    -2238.2      2.0213E+6    9.4625E+6        1.13600
